  can0  62B   [8]  01 4F 14 08 7F E0 01 82
  can0  62A   [8]  03 38 9B 00 01 00 00 00
  can0  62B   [8]  06 4E AB FF 7F E0 05 90
  can0  62B   [8]  00 4E C3 FA 80 20 01 9E
  can0  62B   [8]  01 4F 14 08 7F E0 01 82
  can0  62A   [8]  03 38 9C 00 01 00 00 00
  can0  62B   [8]  06 4E AB FF 7F E0 05 90
  can0  62B   [8]  00 4E C3 FA 80 20 01 9E
  can0  62B   [8]  01 4F 14 08 7F E0 01 82
  can0  62A   [8]  02 38 9D 00 01 00 00 00
  can0  62B   [8]  06 4E AB FF 7F E0 05 90
  can0  62B   [8]  01 4F 14 08 7F E0 01 82
  can0  62A   [8]  02 38 9E 00 01 00 00 00
  can0  62B   [8]  06 4E AB FF 7F E0 05 90
  can0  62B   [8]  01 4F 14 08 7F E0 01 82
  can0  62A   [8]  02 38 9F 00 01 00 00 00
  can0  62B   [8]  06 4E AB FF 7F E0 05 90
  can0  62B   [8]  01 4F 14 08 7F E0 01 82
  can0  62A   [8]  02 38 A0 00 01 00 00 00
  can0  62B   [8]  06 4E AB FF 7F E0 05 90
  can0  62B   [8]  01 4F 14 08 7F E0 01 82
  can0  62A   [8]  02 38 A1 00 01 00 00 00
  can0  62B   [8]  06 4E AB FF 7F E0 05 90
  can0  62B   [8]  01 4F 14 08 7F E0 01 82
  can0  221   [8]  40 14 00 00 12 C4 00 20
  can0  720   [8]  02 00 05 01 00 22 00 22
  can0  62A   [8]  02 38 A2 00 01 00 00 00
  can0  62B   [8]  06 4E AB FF 7F E0 05 90
  can0  62B   [8]  01 4F 14 08 7F E0 01 82
  can0  62A   [8]  02 38 A3 00 01 00 00 00
  can0  62B   [8]  06 4E AB FF 7F E0 05 90
  can0  62B   [8]  01 4F 14 08 7F E0 01 82
  can0  62A   [8]  02 38 A4 00 01 00 00 00
  can0  62B   [8]  06 4E AB FF 7F E0 05 90
  can0  62B   [8]  01 4F 14 08 7F E0 01 82
  can0  62A   [8]  01 38 A5 00 01 00 00 00
  can0  62B   [8]  06 4E AB FF 7F E0 05 90
  can0  62A   [8]  01 38 A6 00 01 00 00 00
  can0  62B   [8]  06 4E AB FF 7F E0 05 90
  can0  62A   [8]  01 38 A7 00 01 00 00 00
  can0  62B   [8]  06 4E AB FF 7F E0 05 90
  can0  62A   [8]  01 38 A8 00 01 00 00 00
  can0  62B   [8]  06 4E AB FF 7F E0 05 90
  can0  62A   [8]  00 38 A9 00 01 00 00 00
  can0  62A   [8]  00 38 AA 00 01 00 00 00
  can0  62A   [8]  00 38 AB 00 01 00 00 00
  can0  62A   [8]  00 38 AC 00 01 00 00 00
  can0  62A   [8]  00 38 AD 00 01 00 00 00
  can0  62A   [8]  00 38 AE 00 01 00 00 00
  can0  62A   [8]  00 38 AF 00 01 00 00 00
  can0  62A   [8]  00 38 B0 00 01 00 00 00
  can0  62A   [8]  00 38 B1 00 01 00 00 00
  can0  221   [8]  40 14 00 00 12 C4 00 20
  can0  720   [8]  02 00 05 01 00 22 00 22
  can0  62A   [8]  00 38 B2 00 01 00 00 00
  can0  62A   [8]  00 38 B3 00 01 00 00 00
  can0  62A   [8]  00 38 B4 00 01 00 00 00
  can0  62A   [8]  00 38 B5 00 01 00 00 00
  can0  62A   [8]  00 38 B6 00 01 00 00 00
  can0  62A   [8]  00 38 B7 00 01 00 00 00
  can0  62A   [8]  00 38 B8 00 01 00 00 00
  can0  62A   [8]  00 38 B9 00 01 00 00 00
  can0  62A   [8]  00 38 BA 00 01 00 00 00
  can0  62A   [8]  00 38 BB 00 01 00 00 00
  can0  62A   [8]  00 38 BC 00 01 00 00 00
  can0  62A   [8]  00 38 BD 00 01 00 00 00
  can0  62A   [8]  00 38 BE 00 01 00 00 00
  can0  62A   [8]  00 38 BF 00 01 00 00 00
  can0  62A   [8]  00 38 C0 00 01 00 00 00
  can0  62A   [8]  00 38 C1 00 01 00 00 00
  can0  62A   [8]  00 38 C2 00 01 00 00 00
  can0  221   [8]  40 14 00 00 12 C4 00 20
  can0  720   [8]  02 00 05 01 00 22 00 22
  can0  62A   [8]  00 38 C3 00 01 00 00 00
  can0  62A   [8]  00 38 C4 00 01 00 00 00
  can0  62A   [8]  00 38 C5 00 01 00 00 00
  can0  62A   [8]  00 38 C6 00 01 00 00 00
  can0  62A   [8]  00 38 C7 00 01 00 00 00
  can0  62A   [8]  00 38 C8 00 01 00 00 00
  can0  62A   [8]  00 38 C9 00 01 00 00 00
  can0  62A   [8]  00 38 CA 00 01 00 00 00
  can0  62A   [8]  00 38 CB 00 01 00 00 00
  can0  62A   [8]  00 38 CC 00 01 00 00 00
  can0  62A   [8]  00 38 CD 00 01 00 00 00
  can0  62A   [8]  00 38 CE 00 01 00 00 00
  can0  62A   [8]  00 38 CF 00 01 00 00 00
  can0  62A   [8]  00 38 D0 00 01 00 00 00
  can0  62A   [8]  00 38 D1 00 01 00 00 00
  can0  62A   [8]  00 38 D2 00 01 00 00 00
  can0  62A   [8]  00 38 D3 00 01 00 00 00
  can0  221   [8]  40 14 00 00 12 C4 00 20
  can0  720   [8]  02 00 05 01 00 22 00 22
  can0  62A   [8]  00 38 D4 00 01 00 00 00
  can0  62A   [8]  00 38 D5 00 01 00 00 00
  can0  62A   [8]  00 38 D6 00 01 00 00 00
  can0  62A   [8]  00 38 D7 00 01 00 00 00
  can0  62A   [8]  00 38 D8 00 01 00 00 00
  can0  62A   [8]  00 38 D9 00 01 00 00 00
  can0  62A   [8]  00 38 DA 00 01 00 00 00
  can0  62A   [8]  00 38 DB 00 01 00 00 00
  can0  62A   [8]  00 38 DC 00 01 00 00 00
  can0  62A   [8]  00 38 DD 00 01 00 00 00
  can0  62A   [8]  00 38 DE 00 01 00 00 00
  can0  62A   [8]  00 38 DF 00 01 00 00 00
  can0  62A   [8]  00 38 E0 00 01 00 00 00
  can0  62A   [8]  00 38 E1 00 01 00 00 00
  can0  62A   [8]  00 38 E2 00 01 00 00 00
  can0  62A   [8]  00 38 E3 00 01 00 00 00
  can0  221   [8]  40 14 00 00 12 C4 00 20
  can0  720   [8]  02 00 05 01 00 22 00 22
  can0  62A   [8]  00 38 E4 00 01 00 00 00
  can0  62A   [8]  00 38 E5 00 01 00 00 00
  can0  62A   [8]  00 38 E6 00 01 00 00 00
  can0  62A   [8]  00 38 E7 00 01 00 00 00
  can0  62A   [8]  00 38 E8 00 01 00 00 00
  can0  62A   [8]  00 38 E9 00 01 00 00 00
  can0  62A   [8]  00 38 EA 00 01 00 00 00
  can0  62A   [8]  00 38 EB 00 01 00 00 00
  can0  62A   [8]  00 38 EC 00 01 00 00 00
  can0  62A   [8]  00 38 ED 00 01 00 00 00
  can0  62A   [8]  00 38 EE 00 01 00 00 00
  can0  62A   [8]  00 38 EF 00 01 00 00 00
  can0  62A   [8]  00 38 F0 00 01 00 00 00
  can0  62A   [8]  00 38 F1 00 01 00 00 00
  can0  62A   [8]  00 38 F2 00 01 00 00 00
  can0  62A   [8]  00 38 F3 00 01 00 00 00
  can0  62A   [8]  00 38 F4 00 01 00 00 00
  can0  221   [8]  40 14 00 00 12 C4 00 20
  can0  720   [8]  02 00 05 01 00 22 00 22
  can0  62A   [8]  00 38 F5 00 01 00 00 00
  can0  62A   [8]  00 38 F6 00 01 00 00 00
  can0  62A   [8]  00 38 F7 00 01 00 00 00
  can0  62A   [8]  00 38 F8 00 01 00 00 00
  can0  62A   [8]  00 38 F9 00 01 00 00 00
  can0  62A   [8]  00 38 FA 00 01 00 00 00
  can0  62A   [8]  00 38 FB 00 01 00 00 00
  can0  62A   [8]  00 38 FC 00 01 00 00 00
  can0  62A   [8]  00 38 FD 00 01 00 00 00
  can0  62A   [8]  00 38 FE 00 01 00 00 00
  can0  62A   [8]  00 38 FF 00 01 00 00 00
  can0  62A   [8]  00 39 00 00 01 00 00 00
  can0  62A   [8]  00 39 01 00 01 00 00 00
  can0  62A   [8]  00 39 02 00 01 00 00 00
  can0  62A   [8]  00 39 03 00 01 00 00 00
  can0  62A   [8]  00 39 04 00 01 00 00 00
  can0  62A   [8]  00 39 05 00 01 00 00 00
  can0  221   [8]  40 14 00 00 12 C4 00 20
  can0  720   [8]  02 00 05 01 00 22 00 22
  can0  62A   [8]  00 39 06 00 01 00 00 00
  can0  62A   [8]  00 39 07 00 01 00 00 00
  can0  62A   [8]  00 39 08 00 01 00 00 00
  can0  62A   [8]  00 39 09 00 01 00 00 00
  can0  62A   [8]  00 39 0A 00 01 00 00 00
  can0  62A   [8]  00 39 0B 00 01 00 00 00
  can0  62A   [8]  00 39 0C 00 01 00 00 00
  can0  62A   [8]  00 39 0D 00 01 00 00 00
  can0  62A   [8]  00 39 0E 00 01 00 00 00
  can0  62A   [8]  00 39 0F 00 01 00 00 00
  can0  62A   [8]  00 39 10 00 01 00 00 00
  can0  62A   [8]  00 39 11 00 01 00 00 00
  can0  62A   [8]  00 39 12 00 01 00 00 00
  can0  62A   [8]  00 39 13 00 01 00 00 00
  can0  62A   [8]  00 39 14 00 01 00 00 00
  can0  62A   [8]  00 39 15 00 01 00 00 00
  can0  221   [8]  40 14 00 00 12 C4 00 20
  can0  720   [8]  02 00 05 01 00 22 00 22
  can0  62A   [8]  00 39 16 00 01 00 00 00
  can0  62A   [8]  00 39 17 00 01 00 00 00
  can0  62A   [8]  00 39 18 00 01 00 00 00
  can0  62A   [8]  00 39 19 00 01 00 00 00
  can0  62A   [8]  00 39 1A 00 01 00 00 00
  can0  62A   [8]  00 39 1B 00 01 00 00 00
  can0  62A   [8]  00 39 1C 00 01 00 00 00
  can0  62A   [8]  00 39 1D 00 01 00 00 00
  can0  62A   [8]  00 39 1E 00 01 00 00 00
  can0  62A   [8]  00 39 1F 00 01 00 00 00
  can0  62A   [8]  00 39 20 00 01 00 00 00
  can0  62A   [8]  00 39 21 00 01 00 00 00
  can0  62A   [8]  00 39 22 00 01 00 00 00
  can0  62A   [8]  00 39 23 00 01 00 00 00
  can0  62A   [8]  00 39 24 00 01 00 00 00
  can0  62A   [8]  00 39 25 00 01 00 00 00
  can0  62A   [8]  00 39 26 00 01 00 00 00
  can0  221   [8]  40 14 00 00 12 C4 00 20
  can0  720   [8]  02 00 05 01 00 22 00 22
  can0  62A   [8]  00 39 27 00 01 00 00 00
  can0  62A   [8]  00 39 28 00 01 00 00 00
  can0  62A   [8]  00 39 29 00 01 00 00 00
  can0  62A   [8]  00 39 2A 00 01 00 00 00
  can0  62A   [8]  00 39 2B 00 01 00 00 00
  can0  62A   [8]  00 39 2C 00 01 00 00 00
  can0  62A   [8]  00 39 2D 00 01 00 00 00
  can0  62A   [8]  00 39 2E 00 01 00 00 00
  can0  62A   [8]  00 39 2F 00 01 00 00 00
  can0  62A   [8]  00 39 30 00 01 00 00 00
  can0  62A   [8]  00 39 31 00 01 00 00 00
  can0  62A   [8]  00 39 32 00 01 00 00 00
  can0  62A   [8]  00 39 33 00 01 00 00 00
  can0  62A   [8]  00 39 34 00 01 00 00 00
  can0  62A   [8]  00 39 35 00 01 00 00 00
  can0  62A   [8]  00 39 36 00 01 00 00 00
  can0  62A   [8]  00 39 37 00 01 00 00 00
  can0  221   [8]  40 14 00 00 12 C4 00 20
  can0  720   [8]  02 00 05 01 00 22 00 22
  can0  62A   [8]  00 39 38 00 01 00 00 00
  can0  62A   [8]  00 39 39 00 01 00 00 00
  can0  62A   [8]  00 39 3A 00 01 00 00 00
  can0  62A   [8]  00 39 3B 00 01 00 00 00
  can0  62A   [8]  00 39 3C 00 01 00 00 00
  can0  62A   [8]  00 39 3D 00 01 00 00 00
  can0  62A   [8]  00 39 3E 00 01 00 00 00
  can0  62A   [8]  00 39 3F 00 01 00 00 00
  can0  62A   [8]  00 39 40 00 01 00 00 00
  can0  62A   [8]  00 39 41 00 01 00 00 00
  can0  62A   [8]  00 39 42 00 01 00 00 00
  can0  62A   [8]  00 39 43 00 01 00 00 00
  can0  62A   [8]  00 39 44 00 01 00 00 00
  can0  62A   [8]  00 39 45 00 01 00 00 00
  can0  62A   [8]  00 39 46 00 01 00 00 00
  can0  62A   [8]  00 39 47 00 01 00 00 00
  can0  221   [8]  40 14 00 00 12 C4 00 20
  can0  720   [8]  02 00 05 01 00 22 00 22
  can0  62A   [8]  00 39 48 00 01 00 00 00
  can0  62A   [8]  00 39 49 00 01 00 00 00
  can0  62A   [8]  00 39 4A 00 01 00 00 00
  can0  62A   [8]  00 39 4B 00 01 00 00 00
  can0  62A   [8]  00 39 4C 00 01 00 00 00
  can0  62A   [8]  00 39 4D 00 01 00 00 00
  can0  62A   [8]  00 39 4E 00 01 00 00 00
  can0  62A   [8]  00 39 4F 00 01 00 00 00
  can0  62A   [8]  00 39 50 00 01 00 00 00
  can0  62A   [8]  00 39 51 00 01 00 00 00
  can0  62A   [8]  00 39 52 00 01 00 00 00
  can0  62A   [8]  00 39 53 00 01 00 00 00
  can0  62A   [8]  00 39 54 00 01 00 00 00
  can0  62A   [8]  00 39 55 00 01 00 00 00
  can0  62A   [8]  00 39 56 00 01 00 00 00
  can0  62A   [8]  00 39 57 00 01 00 00 00
  can0  62A   [8]  00 39 58 00 01 00 00 00
  can0  221   [8]  40 14 00 00 12 C4 00 20
  can0  720   [8]  02 00 05 01 00 22 00 22
  can0  62A   [8]  00 39 59 00 01 00 00 00
  can0  62A   [8]  00 39 5A 00 01 00 00 00
  can0  62A   [8]  00 39 5B 00 01 00 00 00
  can0  62A   [8]  00 39 5C 00 01 00 00 00
  can0  62A   [8]  00 39 5D 00 01 00 00 00
  can0  62A   [8]  00 39 5E 00 01 00 00 00
  can0  62A   [8]  00 39 5F 00 01 00 00 00
  can0  62A   [8]  00 39 60 00 01 00 00 00
  can0  62A   [8]  00 39 61 00 01 00 00 00
  can0  62A   [8]  00 39 62 00 01 00 00 00
  can0  62A   [8]  00 39 63 00 01 00 00 00
  can0  62A   [8]  00 39 64 00 01 00 00 00
  can0  62A   [8]  00 39 65 00 01 00 00 00
  can0  62A   [8]  00 39 66 00 01 00 00 00
  can0  62A   [8]  00 39 67 00 01 00 00 00
  can0  62A   [8]  00 39 68 00 01 00 00 00
  can0  62A   [8]  00 39 69 00 01 00 00 00
  can0  221   [8]  40 14 00 00 12 C4 00 20
  can0  720   [8]  02 00 05 01 00 22 00 22
  can0  62A   [8]  00 39 6A 00 01 00 00 00
  can0  62A   [8]  00 39 6B 00 01 00 00 00
  can0  62A   [8]  00 39 6C 00 01 00 00 00
  can0  62A   [8]  00 39 6D 00 01 00 00 00
  can0  62A   [8]  00 39 6E 00 01 00 00 00
  can0  62A   [8]  00 39 6F 00 01 00 00 00
  can0  62A   [8]  00 39 70 00 01 00 00 00
  can0  62A   [8]  00 39 71 00 01 00 00 00
  can0  62A   [8]  00 39 72 00 01 00 00 00
  can0  62A   [8]  00 39 73 00 01 00 00 00
  can0  62A   [8]  00 39 74 00 01 00 00 00
  can0  62A   [8]  00 39 75 00 01 00 00 00
  can0  62A   [8]  00 39 76 00 01 00 00 00
  can0  62A   [8]  00 39 77 00 01 00 00 00
  can0  62A   [8]  00 39 78 00 01 00 00 00
  can0  62A   [8]  00 39 79 00 01 00 00 00
  can0  221   [8]  40 14 00 00 12 C4 00 20
  can0  720   [8]  02 00 05 01 00 22 00 22
  can0  62A   [8]  00 39 7A 00 01 00 00 00
  can0  62A   [8]  00 39 7B 00 01 00 00 00
  can0  62A   [8]  00 39 7C 00 01 00 00 00
  can0  62A   [8]  00 39 7D 00 01 00 00 00
  can0  62A   [8]  00 39 7E 00 01 00 00 00
  can0  62A   [8]  00 39 7F 00 01 00 00 00
  can0  62A   [8]  00 39 80 00 01 00 00 00
  can0  62A   [8]  00 39 81 00 01 00 00 00
  can0  62A   [8]  00 39 82 00 01 00 00 00
  can0  62A   [8]  00 39 83 00 01 00 00 00
  can0  62A   [8]  00 39 84 00 01 00 00 00
  can0  62A   [8]  00 39 85 00 01 00 00 00
  can0  62A   [8]  00 39 86 00 01 00 00 00
  can0  62A   [8]  00 39 87 00 01 00 00 00
  can0  62A   [8]  00 39 88 00 01 00 00 00
  can0  62A   [8]  00 39 89 00 01 00 00 00
  can0  62A   [8]  00 39 8A 00 01 00 00 00
  can0  221   [8]  40 14 00 00 12 C4 00 20
  can0  720   [8]  02 00 05 01 00 22 00 22
  can0  62A   [8]  00 39 8B 00 01 00 00 00
  can0  62A   [8]  00 39 8C 00 01 00 00 00
  can0  62A   [8]  00 39 8D 00 01 00 00 00
  can0  62A   [8]  00 39 8E 00 01 00 00 00
  can0  62A   [8]  00 39 8F 00 01 00 00 00
  can0  62A   [8]  00 39 90 00 01 00 00 00
  can0  62A   [8]  00 39 91 00 01 00 00 00
  can0  62A   [8]  00 39 92 00 01 00 00 00
  can0  62A   [8]  00 39 93 00 01 00 00 00
  can0  62A   [8]  00 39 94 00 01 00 00 00
  can0  62A   [8]  00 39 95 00 01 00 00 00
  can0  62A   [8]  00 39 96 00 01 00 00 00
  can0  62A   [8]  00 39 97 00 01 00 00 00
  can0  62A   [8]  00 39 98 00 01 00 00 00
  can0  62A   [8]  00 39 99 00 01 00 00 00
  can0  62A   [8]  00 39 9A 00 01 00 00 00
  can0  62A   [8]  00 39 9B 00 01 00 00 00
  can0  221   [8]  40 14 00 00 12 C4 00 20
  can0  720   [8]  02 00 05 01 00 22 00 22
  can0  62A   [8]  00 39 9C 00 01 00 00 00
  can0  62A   [8]  00 39 9D 00 01 00 00 00
  can0  62A   [8]  00 39 9E 00 01 00 00 00
  can0  62A   [8]  00 39 9F 00 01 00 00 00
  can0  62A   [8]  00 39 A0 00 01 00 00 00
  can0  62A   [8]  00 39 A1 00 01 00 00 00
  can0  62A   [8]  00 39 A2 00 01 00 00 00
  can0  62A   [8]  00 39 A3 00 01 00 00 00
  can0  62A   [8]  00 39 A4 00 01 00 00 00
  can0  62A   [8]  00 39 A5 00 01 00 00 00
  can0  62A   [8]  00 39 A6 00 01 00 00 00
  can0  62A   [8]  00 39 A7 00 01 00 00 00
  can0  62A   [8]  00 39 A8 00 01 00 00 00
  can0  62A   [8]  00 39 A9 00 01 00 00 00
  can0  62A   [8]  00 39 AA 00 01 00 00 00
  can0  62A   [8]  00 39 AB 00 01 00 00 00
  can0  221   [8]  40 14 00 00 12 C4 00 20
  can0  720   [8]  02 00 05 01 00 22 00 22
  can0  62A   [8]  00 39 AC 00 01 00 00 00
  can0  62A   [8]  00 39 AD 00 01 00 00 00
  can0  62A   [8]  00 39 AE 00 01 00 00 00
  can0  62A   [8]  00 39 AF 00 01 00 00 00
  can0  62A   [8]  00 39 B0 00 01 00 00 00
  can0  62A   [8]  00 39 B1 00 01 00 00 00
  can0  62A   [8]  00 39 B2 00 01 00 00 00
  can0  62A   [8]  00 39 B3 00 01 00 00 00
  can0  62A   [8]  00 39 B4 00 01 00 00 00
  can0  62A   [8]  00 39 B5 00 01 00 00 00
  can0  62A   [8]  00 39 B6 00 01 00 00 00
  can0  62A   [8]  00 39 B7 00 01 00 00 00
  can0  62A   [8]  00 39 B8 00 01 00 00 00
  can0  62A   [8]  00 39 B9 00 01 00 00 00
  can0  62A   [8]  00 39 BA 00 01 00 00 00
  can0  62A   [8]  01 39 BB 00 01 00 00 00
  can0  62B   [8]  00 4E 84 01 80 20 01 84
  can0  62A   [8]  01 39 BC 00 01 00 00 00
  can0  62B   [8]  00 4E 84 01 80 20 01 84
  can0  221   [8]  40 14 00 00 12 C4 00 20
  can0  720   [8]  02 00 05 01 00 22 00 22
  can0  62A   [8]  01 39 BD 00 01 00 00 00
  can0  62B   [8]  00 4E 84 01 80 20 01 84
  can0  62A   [8]  01 39 BE 00 01 00 00 00
  can0  62B   [8]  00 4E 84 01 80 20 01 84
  can0  62A   [8]  01 39 BF 00 01 00 00 00
  can0  62B   [8]  00 4E 84 01 80 20 01 84
  can0  62A   [8]  01 39 C0 00 01 00 00 00
  can0  62B   [8]  00 4E 84 01 80 20 01 84
  can0  62A   [8]  01 39 C1 00 01 00 00 00
  can0  62B   [8]  00 4E 84 01 80 20 01 84
  can0  62A   [8]  01 39 C2 00 01 00 00 00
  can0  62B   [8]  00 4E 84 01 80 20 01 84
  can0  62A   [8]  01 39 C3 00 01 00 00 00
  can0  62B   [8]  00 4E 7C 02 80 20 01 84
  can0  62A   [8]  01 39 C4 00 01 00 00 00
  can0  62B   [8]  00 4E 7C 02 80 20 01 84
  can0  62A   [8]  01 39 C5 00 01 00 00 00
  can0  62B   [8]  00 4E 7C 02 80 20 01 84
  can0  62A   [8]  01 39 C6 00 01 00 00 00
  can0  62B   [8]  00 4E 7C 02 80 20 01 82
  can0  62A   [8]  01 39 C7 00 01 00 00 00
  can0  62B   [8]  00 4E 7C 02 80 20 01 82
  can0  62A   [8]  01 39 C8 00 01 00 00 00
  can0  62B   [8]  00 4E 7C 02 80 20 01 82
  can0  62A   [8]  01 39 C9 00 01 00 00 00
  can0  62B   [8]  00 4E 7C 02 80 20 01 82
  can0  62A   [8]  01 39 CA 00 01 00 00 00
  can0  62B   [8]  00 4E 7C 02 80 20 01 82
  can0  62A   [8]  01 39 CB 00 01 00 00 00
  can0  62B   [8]  00 4E 7C 02 80 20 01 82
  can0  62A   [8]  01 39 CC 00 01 00 00 00
  can0  62B   [8]  00 4E 7C 02 80 20 01 82
  can0  62A   [8]  01 39 CD 00 01 00 00 00
  can0  62B   [8]  00 4E 7C 02 80 20 01 82
  can0  221   [8]  40 14 00 00 12 C4 00 20
  can0  720   [8]  02 00 05 01 00 22 00 22
  can0  62A   [8]  01 39 CE 00 01 00 00 00
  can0  62B   [8]  00 4E 7C 02 80 20 01 82
  can0  62A   [8]  01 39 CF 00 01 00 00 00
  can0  62B   [8]  00 4E 7C 02 80 20 01 82
  can0  62A   [8]  01 39 D0 00 01 00 00 00
  can0  62B   [8]  00 4E 7C 02 80 20 01 82
  can0  62A   [8]  01 39 D1 00 01 00 00 00
  can0  62B   [8]  00 4E 7C 02 80 20 01 82
  can0  62A   [8]  01 39 D2 00 01 00 00 00
  can0  62B   [8]  00 4E 7C 02 80 20 01 82
  can0  62A   [8]  01 39 D3 00 01 00 00 00
  can0  62B   [8]  00 4E 7C 02 80 20 01 82